
T0468 000:627 SEGGER J-Link V4.80g Log File (0000ms, 0349ms total)
T0468 000:627 DLL Compiled: Feb 13 2014 20:50:02 (0000ms, 0349ms total)
T0468 000:627 Logging started @ 2015-08-27 14:05 (0000ms, 0349ms total)
T0468 000:627 JLINK_SetWarnOutHandler(...) (0000ms, 0349ms total)
T0468 000:627 JLINK_OpenEx(...)
Firmware: J-Link ARM V7 compiled Jun 20 2012 19:45:53
Hardware: V7.00
S/N: 19087980
Feature(s): RDI, FlashDL, FlashBP, JFlash, GDBFull  returns O.K. (0327ms, 0676ms total)
T0468 000:954 JLINK_SetErrorOutHandler(...) (0000ms, 0676ms total)
T0468 000:954 JLINK_ExecCommand("ProjectFile = "C:\workspace\xadow_pebble_11u35\JLinkSettings.ini"", ...)  returns 0x00 (0000ms, 0676ms total)
T0468 000:981 JLINK_ExecCommand("Device = LPC11U35/401", ...)Device "LPC11U35/401" selected (64 KB flash, 8 KB RAM).  returns 0x00 (0032ms, 0708ms total)
T0468 001:013 JLINK_ExecCommand("DisableConnectionTimeout", ...)  returns 0x01 (0000ms, 0708ms total)
T0468 001:013 JLINK_GetHardwareVersion()  returns 0x11170 (0000ms, 0708ms total)
T0468 001:013 JLINK_GetDLLVersion()  returns 48007 (0000ms, 0708ms total)
T0468 001:013 JLINK_GetFirmwareString(...) (0000ms, 0708ms total)
T0468 001:122 JLINK_GetDLLVersion()  returns 48007 (0000ms, 0708ms total)
T0468 001:123 JLINK_GetCompileDateTime() (0000ms, 0708ms total)
T0468 001:157 JLINK_GetFirmwareString(...) (0000ms, 0708ms total)
T0468 001:173 JLINK_GetHardwareVersion()  returns 0x11170 (0000ms, 0708ms total)
T0468 001:225 JLINK_TIF_Select(JLINKARM_TIF_SWD)  returns 0x00 (0030ms, 0738ms total)
T0468 001:255 JLINK_SetSpeed(2000) (0003ms, 0741ms total)
T0468 001:258 JLINK_GetId() >0x108 TIF>Found SWD-DP with ID 0x0BB11477 >0x0D TIF> >0x21 TIF> >0x0D TIF> >0x28 TIF> >0x0D TIF> >0x28 TIF> >0x0D TIF> >0x21 TIF> >0x0D TIF> >0x28 TIF> >0x0D TIF> >0x21 TIF> >0x0D TIF> >0x21 TIF> >0x0D TIF> >0x21 TIF> >0x0D TIF> >0x28 TIF> >0x0D TIF> >0x21 TIF> >0x0D TIF> >0x28 TIF> >0x0D TIF> >0x28 TIF> >0x0D TIF> >0x21 TIF> >0x0D TIF> >0x28 TIF> >0x0D TIF> >0x28 TIF> >0x0D TIF> >0x28 TIF> >0x0D TIF> >0x21 TIF> >0x0D TIF> >0x21 TIF> >0x0D TIF> >0x28 TIF> >0x0D TIF>
 >0x21 TIF> >0x0D TIF> >0x21 TIF>Found Cortex-M0 r0p0, Little endian. >0x0D TIF> >0x28 TIF> -- CPU_WriteMem(4 bytes @ 0xE0002000) -- CPU_ReadMem(4 bytes @ 0xE000EDF0) -- CPU_ReadMem(4 bytes @ 0xE0002000)FPUnit: 4 code (BP) slots and 0 literal slots -- CPU_ReadMem(4 bytes @ 0xE000EDFC) -- CPU_ReadMem(4 bytes @ 0xE0001000) -- CPU_WriteMem(4 bytes @ 0xE0001000) -- CPU_ReadMem(4 bytes @ 0xE00FF018) >0x0D TIF> >0x21 TIF>  returns 0x0BB11477 (0530ms, 1271ms total)
T0468 001:788 JLINK_GetDeviceFamily()  returns 6 (0000ms, 1271ms total)
T0468 001:800 JLINK_ReadMem (0xE00FFFF0, 0x0010 Bytes, ...) -- CPU is running -- CPU_ReadMem(16 bytes @ 0xE00FFFF0) -- Data:  0D 00 00 00 10 00 00 00 05 00 00 00 B1 00 00 00  returns 0x00 (0022ms, 1293ms total)
T0468 001:822 JLINK_ReadMem (0xE00FFFD0, 0x0020 Bytes, ...) -- CPU is running -- CPU_ReadMem(32 bytes @ 0xE00FFFD0) -- Data:  04 00 00 00 00 00 00 00 00 00 00 00 00 00 00 00 ...  returns 0x00 (0010ms, 1303ms total)
T0468 001:832 JLINK_ReadMem (0xE00FF000, 0x0018 Bytes, ...) -- CPU is running -- CPU_ReadMem(24 bytes @ 0xE00FF000) -- Data:  03 F0 F0 FF 03 20 F0 FF 03 30 F0 FF 00 00 00 00 ...  returns 0x00 (0011ms, 1314ms total)
T0468 001:843 JLINK_ReadMemU32(0xE000ED00, 0x0001 Items, ...) -- CPU is running -- CPU_ReadMem(4 bytes @ 0xE000ED00) -- Data:  00 C2 0C 41  returns 0x01 (0011ms, 1325ms total)
T0468 001:854 JLINK_SetResetType(JLINKARM_RESET_TYPE_NORMAL)  returns JLINKARM_RESET_TYPE_NORMAL (0000ms, 1325ms total)
T0468 001:854 JLINK_Reset() -- CPU_WriteMem(4 bytes @ 0xE000EDFC) -- CPU_WriteMem(4 bytes @ 0xE000EDFC) -- CPU_WriteMem(4 bytes @ 0xE000EDFC) -- CPU_WriteMem(4 bytes @ 0xE0001020) -- CPU_WriteMem(4 bytes @ 0xE0001024) -- CPU_WriteMem(4 bytes @ 0xE0001028) -- CPU_WriteMem(4 bytes @ 0xE000EDFC) -- CPU_WriteMem(4 bytes @ 0xE0001028) -- CPU_ReadMem(4 bytes @ 0x00000004) -- CPU_ReadMem(4 bytes @ 0xE0002000) -- CPU_ReadMem(4 bytes @ 0xE0002008) -- CPU_ReadMem(4 bytes @ 0xE000200C)
 -- CPU_ReadMem(4 bytes @ 0xE0002010) -- CPU_ReadMem(4 bytes @ 0xE0002014) -- CPU_WriteMem(4 bytes @ 0xE0002000) -- CPU_WriteMem(4 bytes @ 0xE0002008) -- CPU_WriteMem(4 bytes @ 0xE000200C) -- CPU_WriteMem(4 bytes @ 0xE0002010) -- CPU_WriteMem(4 bytes @ 0xE0002014) -- CPU_WriteMem(4 bytes @ 0xE0002000) -- CPU_WriteMem(4 bytes @ 0xE0002008) -- CPU_WriteMem(4 bytes @ 0xE000200C) -- CPU_WriteMem(4 bytes @ 0xE0002010) -- CPU_WriteMem(4 bytes @ 0xE0002014) -- CPU_WriteMem(4 bytes @ 0xE0002000)
 -- CPU_ReadMem(4 bytes @ 0xE000EDFC) -- CPU_ReadMem(4 bytes @ 0xE0001000) -- CPU_WriteMem(4 bytes @ 0xE0001000) (0511ms, 1836ms total)
T0468 002:369 JLINK_Halt()  returns 0x00 (0000ms, 1836ms total)
T0468 002:369 JLINK_IsHalted()  returns TRUE (0000ms, 1836ms total)
T0468 002:369 JLINK_ReadMemU32(0xE000EDF0, 0x0001 Items, ...) -- CPU_ReadMem(4 bytes @ 0xE000EDF0) -- Data:  03 00 03 00  returns 0x01 (0011ms, 1847ms total)
T0468 002:380 JLINK_WriteU32(0xE000EDF0, 0xA05F0003) -- CPU_WriteMem(4 bytes @ 0xE000EDF0)  returns 0x00 (0010ms, 1857ms total)
T0468 002:390 JLINK_WriteU32(0xE000EDFC, 0x01000000) -- CPU_WriteMem(4 bytes @ 0xE000EDFC)  returns 0x00 (0004ms, 1861ms total)
T0468 002:447 JLINK_GetHWStatus(...)  returns 0x00 (0003ms, 1864ms total)
T0468 002:504 JLINK_GetNumBPUnits(Type = 0xFFFFFF00)  returns 0x04 (0000ms, 1864ms total)
T0468 002:504 JLINK_GetNumBPUnits(Type = 0xF0)  returns 0x2000 (0000ms, 1864ms total)
T0468 002:504 JLINK_GetNumWPUnits()  returns 0x02 (0000ms, 1864ms total)
T0468 002:548 JLINK_GetSpeed()  returns 0x7D0 (0000ms, 1864ms total)
T0468 002:572 JLINK_ReadMemU32(0xE000E004, 0x0001 Items, ...) -- CPU_ReadMem(4 bytes @ 0xE000E004) -- Data:  00 00 00 00  returns 0x01 (0014ms, 1878ms total)
T0468 002:586 JLINK_Halt()  returns 0x00 (0000ms, 1878ms total)
T0468 002:586 JLINK_IsHalted()  returns TRUE (0000ms, 1878ms total)
T0468 002:596 JLINK_WriteMem(0x10000000, 0x0170 Bytes, ...) -- Data:  00 BE 0A E0 0D 78 2D 06 68 40 08 24 40 00 00 D3 ... -- CPU_WriteMem(368 bytes @ 0x10000000)  returns 0x170 (0013ms, 1891ms total)
T0468 002:609 JLINK_WriteReg(R0, 0x00000000)  returns 0x00 (0000ms, 1891ms total)
T0468 002:609 JLINK_WriteReg(R1, 0x00B71B00)  returns 0x00 (0000ms, 1891ms total)
T0468 002:609 JLINK_WriteReg(R2, 0x00000001)  returns 0x00 (0000ms, 1891ms total)
T0468 002:609 JLINK_WriteReg(R3, 0x00000000)  returns 0x00 (0000ms, 1891ms total)
T0468 002:609 JLINK_WriteReg(R4, 0x00000000)  returns 0x00 (0000ms, 1891ms total)
T0468 002:609 JLINK_WriteReg(R5, 0x00000000)  returns 0x00 (0000ms, 1891ms total)
T0468 002:609 JLINK_WriteReg(R6, 0x00000000)  returns 0x00 (0000ms, 1891ms total)
T0468 002:609 JLINK_WriteReg(R7, 0x00000000)  returns 0x00 (0000ms, 1891ms total)
T0468 002:609 JLINK_WriteReg(R8, 0x00000000)  returns 0x00 (0000ms, 1891ms total)
T0468 002:609 JLINK_WriteReg(R9, 0x10000168)  returns 0x00 (0000ms, 1891ms total)
T0468 002:609 JLINK_WriteReg(R10, 0x00000000)  returns 0x00 (0000ms, 1891ms total)
T0468 002:609 JLINK_WriteReg(R11, 0x00000000)  returns 0x00 (0000ms, 1891ms total)
T0468 002:609 JLINK_WriteReg(R12, 0x00000000)  returns 0x00 (0000ms, 1891ms total)
T0468 002:609 JLINK_WriteReg(R13 (SP), 0x10000800)  returns 0x00 (0000ms, 1891ms total)
T0468 002:609 JLINK_WriteReg(R14, 0x10000001)  returns 0x00 (0000ms, 1891ms total)
T0468 002:609 JLINK_WriteReg(R15 (PC), 0x1000003C)  returns 0x00 (0000ms, 1891ms total)
T0468 002:609 JLINK_WriteReg(XPSR, 0x01000000)  returns 0x00 (0000ms, 1891ms total)
T0468 002:609 JLINK_WriteReg(MSP, 0x10000800)  returns 0x00 (0000ms, 1891ms total)
T0468 002:609 JLINK_WriteReg(PSP, 0x10000800)  returns 0x00 (0000ms, 1891ms total)
T0468 002:609 JLINK_WriteReg(CFBP, 0x00000000)  returns 0x00 (0000ms, 1891ms total)
T0468 002:609 JLINK_SetBPEx(Addr = 0x10000000, Type = 0xFFFFFFF2)  returns 0x00000001 (0000ms, 1891ms total)
T0468 002:609 JLINK_Go() -- CPU_WriteMem(4 bytes @ 0xE0002000) -- CPU_WriteMem(4 bytes @ 0xE0002008) -- CPU_WriteMem(4 bytes @ 0xE000200C) -- CPU_WriteMem(4 bytes @ 0xE0002010) -- CPU_WriteMem(4 bytes @ 0xE0002014) -- CPU_WriteMem(4 bytes @ 0xE0001004) (0037ms, 1928ms total)
T0468 002:646 JLINK_IsHalted()  returns TRUE (0027ms, 1955ms total)
T0468 002:673 JLINK_ReadReg(R15 (PC))  returns 0x10000000 (0000ms, 1928ms total)
T0468 002:673 JLINK_ClrBPEx(BPHandle = 0x00000001)  returns 0x00 (0000ms, 1928ms total)
T0468 002:673 JLINK_ReadReg(R0)  returns 0x00000000 (0000ms, 1928ms total)
T0468 002:673 JLINK_WriteReg(R0, 0x00000000)  returns 0x00 (0000ms, 1928ms total)
T0468 002:673 JLINK_WriteReg(R1, 0x00001000)  returns 0x00 (0000ms, 1928ms total)
T0468 002:673 JLINK_WriteReg(R2, 0x000000FF)  returns 0x00 (0000ms, 1928ms total)
T0468 002:673 JLINK_WriteReg(R3, 0x00000000)  returns 0x00 (0000ms, 1928ms total)
T0468 002:673 JLINK_WriteReg(R4, 0x00000000)  returns 0x00 (0000ms, 1928ms total)
T0468 002:673 JLINK_WriteReg(R5, 0x00000000)  returns 0x00 (0000ms, 1928ms total)
T0468 002:673 JLINK_WriteReg(R6, 0x00000000)  returns 0x00 (0000ms, 1928ms total)
T0468 002:673 JLINK_WriteReg(R7, 0x00000000)  returns 0x00 (0000ms, 1928ms total)
T0468 002:673 JLINK_WriteReg(R8, 0x00000000)  returns 0x00 (0000ms, 1928ms total)
T0468 002:673 JLINK_WriteReg(R9, 0x10000168)  returns 0x00 (0000ms, 1928ms total)
T0468 002:673 JLINK_WriteReg(R10, 0x00000000)  returns 0x00 (0000ms, 1928ms total)
T0468 002:673 JLINK_WriteReg(R11, 0x00000000)  returns 0x00 (0000ms, 1928ms total)
T0468 002:673 JLINK_WriteReg(R12, 0x00000000)  returns 0x00 (0000ms, 1928ms total)
T0468 002:673 JLINK_WriteReg(R13 (SP), 0x10000800)  returns 0x00 (0000ms, 1928ms total)
T0468 002:673 JLINK_WriteReg(R14, 0x10000001)  returns 0x00 (0000ms, 1928ms total)
T0468 002:673 JLINK_WriteReg(R15 (PC), 0x10000020)  returns 0x00 (0000ms, 1928ms total)
T0468 002:673 JLINK_WriteReg(XPSR, 0x01000000)  returns 0x00 (0000ms, 1928ms total)
T0468 002:673 JLINK_WriteReg(MSP, 0x10000800)  returns 0x00 (0000ms, 1928ms total)
T0468 002:673 JLINK_WriteReg(PSP, 0x10000800)  returns 0x00 (0000ms, 1928ms total)
T0468 002:673 JLINK_WriteReg(CFBP, 0x00000000)  returns 0x00 (0000ms, 1928ms total)
T0468 002:673 JLINK_SetBPEx(Addr = 0x10000000, Type = 0xFFFFFFF2)  returns 0x00000002 (0000ms, 1928ms total)
T0468 002:673 JLINK_Go() -- CPU_WriteMem(4 bytes @ 0xE0002000) (0018ms, 1946ms total)
T0468 002:691 JLINK_IsHalted()  returns TRUE (0022ms, 1968ms total)
T0468 002:713 JLINK_ReadReg(R15 (PC))  returns 0x10000000 (0000ms, 1946ms total)
T0468 002:713 JLINK_ClrBPEx(BPHandle = 0x00000002)  returns 0x00 (0000ms, 1946ms total)
T0468 002:713 JLINK_ReadReg(R0)  returns 0x00000001 (0000ms, 1946ms total)
T0468 002:713 JLINK_WriteReg(R0, 0x00000000)  returns 0x00 (0000ms, 1946ms total)
T0468 002:713 JLINK_WriteReg(R1, 0x00001000)  returns 0x00 (0000ms, 1946ms total)
T0468 002:713 JLINK_WriteReg(R2, 0x000000FF)  returns 0x00 (0000ms, 1946ms total)
T0468 002:713 JLINK_WriteReg(R3, 0x00000000)  returns 0x00 (0000ms, 1946ms total)
T0468 002:713 JLINK_WriteReg(R4, 0x00000000)  returns 0x00 (0000ms, 1946ms total)
T0468 002:713 JLINK_WriteReg(R5, 0x00000000)  returns 0x00 (0000ms, 1946ms total)
T0468 002:713 JLINK_WriteReg(R6, 0x00000000)  returns 0x00 (0000ms, 1946ms total)
T0468 002:713 JLINK_WriteReg(R7, 0x00000000)  returns 0x00 (0000ms, 1946ms total)
T0468 002:713 JLINK_WriteReg(R8, 0x00000000)  returns 0x00 (0000ms, 1946ms total)
T0468 002:713 JLINK_WriteReg(R9, 0x10000168)  returns 0x00 (0000ms, 1946ms total)
T0468 002:713 JLINK_WriteReg(R10, 0x00000000)  returns 0x00 (0000ms, 1946ms total)
T0468 002:713 JLINK_WriteReg(R11, 0x00000000)  returns 0x00 (0000ms, 1946ms total)
T0468 002:713 JLINK_WriteReg(R12, 0x00000000)  returns 0x00 (0000ms, 1946ms total)
T0468 002:713 JLINK_WriteReg(R13 (SP), 0x10000800)  returns 0x00 (0000ms, 1946ms total)
T0468 002:713 JLINK_WriteReg(R14, 0x10000001)  returns 0x00 (0000ms, 1946ms total)
T0468 002:713 JLINK_WriteReg(R15 (PC), 0x100000A4)  returns 0x00 (0000ms, 1946ms total)
T0468 002:713 JLINK_WriteReg(XPSR, 0x01000000)  returns 0x00 (0000ms, 1946ms total)
T0468 002:713 JLINK_WriteReg(MSP, 0x10000800)  returns 0x00 (0000ms, 1946ms total)
T0468 002:713 JLINK_WriteReg(PSP, 0x10000800)  returns 0x00 (0000ms, 1946ms total)
T0468 002:713 JLINK_WriteReg(CFBP, 0x00000000)  returns 0x00 (0000ms, 1946ms total)
T0468 002:713 JLINK_SetBPEx(Addr = 0x10000000, Type = 0xFFFFFFF2)  returns 0x00000003 (0000ms, 1946ms total)
T0468 002:713 JLINK_Go() -- CPU_WriteMem(4 bytes @ 0xE0002000) (0024ms, 1970ms total)
T0468 002:737 JLINK_IsHalted()  returns FALSE (0009ms, 1979ms total)
T0468 002:934 JLINK_IsHalted()  returns TRUE (0025ms, 1995ms total)
T0468 002:959 JLINK_ReadReg(R15 (PC))  returns 0x10000000 (0000ms, 1970ms total)
T0468 002:959 JLINK_ClrBPEx(BPHandle = 0x00000003)  returns 0x00 (0000ms, 1970ms total)
T0468 002:959 JLINK_ReadReg(R0)  returns 0x00000000 (0000ms, 1970ms total)
T0468 002:960 JLINK_WriteReg(R0, 0x00001000)  returns 0x00 (0000ms, 1970ms total)
T0468 002:960 JLINK_WriteReg(R1, 0x00001000)  returns 0x00 (0000ms, 1970ms total)
T0468 002:960 JLINK_WriteReg(R2, 0x000000FF)  returns 0x00 (0000ms, 1970ms total)
T0468 002:960 JLINK_WriteReg(R3, 0x00000000)  returns 0x00 (0000ms, 1970ms total)
T0468 002:960 JLINK_WriteReg(R4, 0x00000000)  returns 0x00 (0000ms, 1970ms total)
T0468 002:960 JLINK_WriteReg(R5, 0x00000000)  returns 0x00 (0000ms, 1970ms total)
T0468 002:960 JLINK_WriteReg(R6, 0x00000000)  returns 0x00 (0000ms, 1970ms total)
T0468 002:960 JLINK_WriteReg(R7, 0x00000000)  returns 0x00 (0000ms, 1970ms total)
T0468 002:960 JLINK_WriteReg(R8, 0x00000000)  returns 0x00 (0000ms, 1970ms total)
T0468 002:960 JLINK_WriteReg(R9, 0x10000168)  returns 0x00 (0000ms, 1970ms total)
T0468 002:960 JLINK_WriteReg(R10, 0x00000000)  returns 0x00 (0000ms, 1970ms total)
T0468 002:960 JLINK_WriteReg(R11, 0x00000000)  returns 0x00 (0000ms, 1970ms total)
T0468 002:960 JLINK_WriteReg(R12, 0x00000000)  returns 0x00 (0000ms, 1970ms total)
T0468 002:960 JLINK_WriteReg(R13 (SP), 0x10000800)  returns 0x00 (0000ms, 1970ms total)
T0468 002:960 JLINK_WriteReg(R14, 0x10000001)  returns 0x00 (0000ms, 1970ms total)
T0468 002:960 JLINK_WriteReg(R15 (PC), 0x10000020)  returns 0x00 (0000ms, 1970ms total)
T0468 002:960 JLINK_WriteReg(XPSR, 0x01000000)  returns 0x00 (0000ms, 1970ms total)
T0468 002:960 JLINK_WriteReg(MSP, 0x10000800)  returns 0x00 (0000ms, 1970ms total)
T0468 002:960 JLINK_WriteReg(PSP, 0x10000800)  returns 0x00 (0000ms, 1970ms total)
T0468 002:960 JLINK_WriteReg(CFBP, 0x00000000)  returns 0x00 (0000ms, 1970ms total)
T0468 002:960 JLINK_SetBPEx(Addr = 0x10000000, Type = 0xFFFFFFF2)  returns 0x00000004 (0000ms, 1970ms total)
T0468 002:960 JLINK_Go() -- CPU_WriteMem(4 bytes @ 0xE0002000) (0021ms, 1991ms total)
T0468 002:982 JLINK_IsHalted()  returns TRUE (0029ms, 2020ms total)
T0468 003:011 JLINK_ReadReg(R15 (PC))  returns 0x10000000 (0000ms, 1991ms total)
T0468 003:011 JLINK_ClrBPEx(BPHandle = 0x00000004)  returns 0x00 (0000ms, 1991ms total)
T0468 003:011 JLINK_ReadReg(R0)  returns 0x00000001 (0000ms, 1991ms total)
T0468 003:011 JLINK_WriteReg(R0, 0x00001000)  returns 0x00 (0000ms, 1991ms total)
T0468 003:011 JLINK_WriteReg(R1, 0x00001000)  returns 0x00 (0000ms, 1991ms total)
T0468 003:011 JLINK_WriteReg(R2, 0x000000FF)  returns 0x00 (0000ms, 1991ms total)
T0468 003:011 JLINK_WriteReg(R3, 0x00000000)  returns 0x00 (0000ms, 1991ms total)
T0468 003:011 JLINK_WriteReg(R4, 0x00000000)  returns 0x00 (0000ms, 1991ms total)
T0468 003:011 JLINK_WriteReg(R5, 0x00000000)  returns 0x00 (0000ms, 1991ms total)
T0468 003:011 JLINK_WriteReg(R6, 0x00000000)  returns 0x00 (0000ms, 1991ms total)
T0468 003:011 JLINK_WriteReg(R7, 0x00000000)  returns 0x00 (0000ms, 1991ms total)
T0468 003:011 JLINK_WriteReg(R8, 0x00000000)  returns 0x00 (0000ms, 1991ms total)
T0468 003:011 JLINK_WriteReg(R9, 0x10000168)  returns 0x00 (0000ms, 1991ms total)
T0468 003:011 JLINK_WriteReg(R10, 0x00000000)  returns 0x00 (0000ms, 1991ms total)
T0468 003:011 JLINK_WriteReg(R11, 0x00000000)  returns 0x00 (0000ms, 1991ms total)
T0468 003:011 JLINK_WriteReg(R12, 0x00000000)  returns 0x00 (0000ms, 1991ms total)
T0468 003:011 JLINK_WriteReg(R13 (SP), 0x10000800)  returns 0x00 (0000ms, 1991ms total)
T0468 003:011 JLINK_WriteReg(R14, 0x10000001)  returns 0x00 (0000ms, 1991ms total)
T0468 003:011 JLINK_WriteReg(R15 (PC), 0x100000A4)  returns 0x00 (0000ms, 1991ms total)
T0468 003:011 JLINK_WriteReg(XPSR, 0x01000000)  returns 0x00 (0000ms, 1991ms total)
T0468 003:011 JLINK_WriteReg(MSP, 0x10000800)  returns 0x00 (0000ms, 1991ms total)
T0468 003:011 JLINK_WriteReg(PSP, 0x10000800)  returns 0x00 (0000ms, 1991ms total)
T0468 003:011 JLINK_WriteReg(CFBP, 0x00000000)  returns 0x00 (0000ms, 1991ms total)
T0468 003:011 JLINK_SetBPEx(Addr = 0x10000000, Type = 0xFFFFFFF2)  returns 0x00000005 (0000ms, 1991ms total)
T0468 003:011 JLINK_Go() -- CPU_WriteMem(4 bytes @ 0xE0002000) (0015ms, 2006ms total)
T0468 003:036 JLINK_IsHalted()  returns FALSE (0004ms, 2010ms total)
T0468 003:093 JLINK_IsHalted()  returns FALSE (0008ms, 2018ms total)
T0468 003:103 JLINK_IsHalted()  returns FALSE (0010ms, 2020ms total)
T0468 003:114 JLINK_IsHalted()  returns FALSE (0009ms, 2019ms total)
T0468 003:125 JLINK_IsHalted()  returns TRUE (0024ms, 2034ms total)
T0468 003:149 JLINK_ReadReg(R15 (PC))  returns 0x10000000 (0000ms, 2010ms total)
T0468 003:149 JLINK_ClrBPEx(BPHandle = 0x00000005)  returns 0x00 (0000ms, 2010ms total)
T0468 003:149 JLINK_ReadReg(R0)  returns 0x00000000 (0000ms, 2010ms total)
T0468 003:152 JLINK_WriteReg(R0, 0x00002000)  returns 0x00 (0000ms, 2010ms total)
T0468 003:152 JLINK_WriteReg(R1, 0x00001000)  returns 0x00 (0000ms, 2010ms total)
T0468 003:152 JLINK_WriteReg(R2, 0x000000FF)  returns 0x00 (0000ms, 2010ms total)
T0468 003:152 JLINK_WriteReg(R3, 0x00000000)  returns 0x00 (0000ms, 2010ms total)
T0468 003:152 JLINK_WriteReg(R4, 0x00000000)  returns 0x00 (0000ms, 2010ms total)
T0468 003:152 JLINK_WriteReg(R5, 0x00000000)  returns 0x00 (0000ms, 2010ms total)
T0468 003:152 JLINK_WriteReg(R6, 0x00000000)  returns 0x00 (0000ms, 2010ms total)
T0468 003:152 JLINK_WriteReg(R7, 0x00000000)  returns 0x00 (0000ms, 2010ms total)
T0468 003:152 JLINK_WriteReg(R8, 0x00000000)  returns 0x00 (0000ms, 2010ms total)
T0468 003:152 JLINK_WriteReg(R9, 0x10000168)  returns 0x00 (0000ms, 2010ms total)
T0468 003:152 JLINK_WriteReg(R10, 0x00000000)  returns 0x00 (0000ms, 2010ms total)
T0468 003:152 JLINK_WriteReg(R11, 0x00000000)  returns 0x00 (0000ms, 2010ms total)
T0468 003:152 JLINK_WriteReg(R12, 0x00000000)  returns 0x00 (0000ms, 2010ms total)
T0468 003:152 JLINK_WriteReg(R13 (SP), 0x10000800)  returns 0x00 (0000ms, 2010ms total)
T0468 003:152 JLINK_WriteReg(R14, 0x10000001)  returns 0x00 (0000ms, 2010ms total)
T0468 003:152 JLINK_WriteReg(R15 (PC), 0x10000020)  returns 0x00 (0000ms, 2010ms total)
T0468 003:152 JLINK_WriteReg(XPSR, 0x01000000)  returns 0x00 (0000ms, 2010ms total)
T0468 003:152 JLINK_WriteReg(MSP, 0x10000800)  returns 0x00 (0000ms, 2010ms total)
T0468 003:152 JLINK_WriteReg(PSP, 0x10000800)  returns 0x00 (0000ms, 2010ms total)
T0468 003:152 JLINK_WriteReg(CFBP, 0x00000000)  returns 0x00 (0000ms, 2010ms total)
T0468 003:152 JLINK_SetBPEx(Addr = 0x10000000, Type = 0xFFFFFFF2)  returns 0x00000006 (0000ms, 2010ms total)
T0468 003:152 JLINK_Go() -- CPU_WriteMem(4 bytes @ 0xE0002000) (0018ms, 2028ms total)
T0468 003:170 JLINK_IsHalted()  returns TRUE (0016ms, 2044ms total)
T0468 003:186 JLINK_ReadReg(R15 (PC))  returns 0x10000000 (0000ms, 2028ms total)
T0468 003:186 JLINK_ClrBPEx(BPHandle = 0x00000006)  returns 0x00 (0000ms, 2028ms total)
T0468 003:186 JLINK_ReadReg(R0)  returns 0x00000001 (0000ms, 2028ms total)
T0468 003:186 JLINK_WriteReg(R0, 0x00002000)  returns 0x00 (0000ms, 2028ms total)
T0468 003:186 JLINK_WriteReg(R1, 0x00001000)  returns 0x00 (0000ms, 2028ms total)
T0468 003:186 JLINK_WriteReg(R2, 0x000000FF)  returns 0x00 (0000ms, 2028ms total)
T0468 003:186 JLINK_WriteReg(R3, 0x00000000)  returns 0x00 (0000ms, 2028ms total)
T0468 003:186 JLINK_WriteReg(R4, 0x00000000)  returns 0x00 (0000ms, 2028ms total)
T0468 003:186 JLINK_WriteReg(R5, 0x00000000)  returns 0x00 (0000ms, 2028ms total)
T0468 003:186 JLINK_WriteReg(R6, 0x00000000)  returns 0x00 (0000ms, 2028ms total)
T0468 003:186 JLINK_WriteReg(R7, 0x00000000)  returns 0x00 (0000ms, 2028ms total)
T0468 003:186 JLINK_WriteReg(R8, 0x00000000)  returns 0x00 (0000ms, 2028ms total)
T0468 003:186 JLINK_WriteReg(R9, 0x10000168)  returns 0x00 (0000ms, 2028ms total)
T0468 003:186 JLINK_WriteReg(R10, 0x00000000)  returns 0x00 (0000ms, 2028ms total)
T0468 003:186 JLINK_WriteReg(R11, 0x00000000)  returns 0x00 (0000ms, 2028ms total)
T0468 003:186 JLINK_WriteReg(R12, 0x00000000)  returns 0x00 (0000ms, 2028ms total)
T0468 003:186 JLINK_WriteReg(R13 (SP), 0x10000800)  returns 0x00 (0000ms, 2028ms total)
T0468 003:186 JLINK_WriteReg(R14, 0x10000001)  returns 0x00 (0000ms, 2028ms total)
T0468 003:186 JLINK_WriteReg(R15 (PC), 0x100000A4)  returns 0x00 (0000ms, 2028ms total)
T0468 003:186 JLINK_WriteReg(XPSR, 0x01000000)  returns 0x00 (0000ms, 2028ms total)
T0468 003:186 JLINK_WriteReg(MSP, 0x10000800)  returns 0x00 (0000ms, 2028ms total)
T0468 003:186 JLINK_WriteReg(PSP, 0x10000800)  returns 0x00 (0000ms, 2028ms total)
T0468 003:186 JLINK_WriteReg(CFBP, 0x00000000)  returns 0x00 (0000ms, 2028ms total)
T0468 003:186 JLINK_SetBPEx(Addr = 0x10000000, Type = 0xFFFFFFF2)  returns 0x00000007 (0000ms, 2028ms total)
T0468 003:186 JLINK_Go() -- CPU_WriteMem(4 bytes @ 0xE0002000) (0028ms, 2056ms total)
T0468 003:214 JLINK_IsHalted()  returns FALSE (0010ms, 2066ms total)
T0468 003:249 JLINK_IsHalted()  returns FALSE (0009ms, 2065ms total)
T0468 003:259 JLINK_IsHalted()  returns FALSE (0009ms, 2065ms total)
T0468 003:270 JLINK_IsHalted()  returns FALSE (0009ms, 2065ms total)
T0468 003:309 JLINK_IsHalted()  returns FALSE (0003ms, 2059ms total)
T0468 003:313 JLINK_IsHalted()  returns TRUE (0022ms, 2078ms total)
T0468 003:335 JLINK_ReadReg(R15 (PC))  returns 0x10000000 (0000ms, 2056ms total)
T0468 003:335 JLINK_ClrBPEx(BPHandle = 0x00000007)  returns 0x00 (0000ms, 2056ms total)
T0468 003:335 JLINK_ReadReg(R0)  returns 0x00000000 (0000ms, 2056ms total)
T0468 003:336 JLINK_WriteReg(R0, 0x00003000)  returns 0x00 (0000ms, 2056ms total)
T0468 003:336 JLINK_WriteReg(R1, 0x00001000)  returns 0x00 (0000ms, 2056ms total)
T0468 003:336 JLINK_WriteReg(R2, 0x000000FF)  returns 0x00 (0000ms, 2056ms total)
T0468 003:336 JLINK_WriteReg(R3, 0x00000000)  returns 0x00 (0000ms, 2056ms total)
T0468 003:336 JLINK_WriteReg(R4, 0x00000000)  returns 0x00 (0000ms, 2056ms total)
T0468 003:336 JLINK_WriteReg(R5, 0x00000000)  returns 0x00 (0000ms, 2056ms total)
T0468 003:336 JLINK_WriteReg(R6, 0x00000000)  returns 0x00 (0000ms, 2056ms total)
T0468 003:336 JLINK_WriteReg(R7, 0x00000000)  returns 0x00 (0000ms, 2056ms total)
T0468 003:336 JLINK_WriteReg(R8, 0x00000000)  returns 0x00 (0000ms, 2056ms total)
T0468 003:336 JLINK_WriteReg(R9, 0x10000168)  returns 0x00 (0000ms, 2056ms total)
T0468 003:336 JLINK_WriteReg(R10, 0x00000000)  returns 0x00 (0000ms, 2056ms total)
T0468 003:336 JLINK_WriteReg(R11, 0x00000000)  returns 0x00 (0001ms, 2057ms total)
T0468 003:337 JLINK_WriteReg(R12, 0x00000000)  returns 0x00 (0000ms, 2057ms total)
T0468 003:337 JLINK_WriteReg(R13 (SP), 0x10000800)  returns 0x00 (0000ms, 2057ms total)
T0468 003:337 JLINK_WriteReg(R14, 0x10000001)  returns 0x00 (0000ms, 2057ms total)
T0468 003:337 JLINK_WriteReg(R15 (PC), 0x10000020)  returns 0x00 (0000ms, 2057ms total)
T0468 003:337 JLINK_WriteReg(XPSR, 0x01000000)  returns 0x00 (0000ms, 2057ms total)
T0468 003:337 JLINK_WriteReg(MSP, 0x10000800)  returns 0x00 (0000ms, 2057ms total)
T0468 003:337 JLINK_WriteReg(PSP, 0x10000800)  returns 0x00 (0000ms, 2057ms total)
T0468 003:337 JLINK_WriteReg(CFBP, 0x00000000)  returns 0x00 (0000ms, 2057ms total)
T0468 003:337 JLINK_SetBPEx(Addr = 0x10000000, Type = 0xFFFFFFF2)  returns 0x00000008 (0000ms, 2057ms total)
T0468 003:337 JLINK_Go() -- CPU_WriteMem(4 bytes @ 0xE0002000) (0028ms, 2085ms total)
T0468 003:365 JLINK_IsHalted()  returns TRUE (0018ms, 2103ms total)
T0468 003:383 JLINK_ReadReg(R15 (PC))  returns 0x10000000 (0000ms, 2085ms total)
T0468 003:383 JLINK_ClrBPEx(BPHandle = 0x00000008)  returns 0x00 (0000ms, 2085ms total)
T0468 003:383 JLINK_ReadReg(R0)  returns 0x00000001 (0000ms, 2085ms total)
T0468 003:383 JLINK_WriteReg(R0, 0x00003000)  returns 0x00 (0000ms, 2085ms total)
T0468 003:383 JLINK_WriteReg(R1, 0x00001000)  returns 0x00 (0000ms, 2085ms total)
T0468 003:383 JLINK_WriteReg(R2, 0x000000FF)  returns 0x00 (0000ms, 2085ms total)
T0468 003:383 JLINK_WriteReg(R3, 0x00000000)  returns 0x00 (0000ms, 2085ms total)
T0468 003:383 JLINK_WriteReg(R4, 0x00000000)  returns 0x00 (0000ms, 2085ms total)
T0468 003:383 JLINK_WriteReg(R5, 0x00000000)  returns 0x00 (0000ms, 2085ms total)
T0468 003:383 JLINK_WriteReg(R6, 0x00000000)  returns 0x00 (0000ms, 2085ms total)
T0468 003:383 JLINK_WriteReg(R7, 0x00000000)  returns 0x00 (0000ms, 2085ms total)
T0468 003:383 JLINK_WriteReg(R8, 0x00000000)  returns 0x00 (0000ms, 2085ms total)
T0468 003:383 JLINK_WriteReg(R9, 0x10000168)  returns 0x00 (0000ms, 2085ms total)
T0468 003:383 JLINK_WriteReg(R10, 0x00000000)  returns 0x00 (0000ms, 2085ms total)
T0468 003:383 JLINK_WriteReg(R11, 0x00000000)  returns 0x00 (0000ms, 2085ms total)
T0468 003:383 JLINK_WriteReg(R12, 0x00000000)  returns 0x00 (0000ms, 2085ms total)
T0468 003:383 JLINK_WriteReg(R13 (SP), 0x10000800)  returns 0x00 (0000ms, 2085ms total)
T0468 003:383 JLINK_WriteReg(R14, 0x10000001)  returns 0x00 (0000ms, 2085ms total)
T0468 003:383 JLINK_WriteReg(R15 (PC), 0x100000A4)  returns 0x00 (0000ms, 2085ms total)
T0468 003:383 JLINK_WriteReg(XPSR, 0x01000000)  returns 0x00 (0000ms, 2085ms total)
T0468 003:383 JLINK_WriteReg(MSP, 0x10000800)  returns 0x00 (0000ms, 2085ms total)
T0468 003:383 JLINK_WriteReg(PSP, 0x10000800)  returns 0x00 (0000ms, 2085ms total)
T0468 003:383 JLINK_WriteReg(CFBP, 0x00000000)  returns 0x00 (0000ms, 2085ms total)
T0468 003:383 JLINK_SetBPEx(Addr = 0x10000000, Type = 0xFFFFFFF2)  returns 0x00000009 (0000ms, 2085ms total)
T0468 003:383 JLINK_Go() -- CPU_WriteMem(4 bytes @ 0xE0002000) (0020ms, 2105ms total)
T0468 003:403 JLINK_IsHalted()  returns FALSE (0005ms, 2110ms total)
T0468 003:447 JLINK_IsHalted()  returns FALSE (0004ms, 2109ms total)
T0468 003:455 JLINK_IsHalted()  returns FALSE (0006ms, 2111ms total)
T0468 003:463 JLINK_IsHalted()  returns FALSE (0010ms, 2115ms total)
T0468 003:476 JLINK_IsHalted()  returns FALSE (0009ms, 2114ms total)
T0468 003:486 JLINK_IsHalted()  returns FALSE (0009ms, 2114ms total)
T0468 003:523 JLINK_IsHalted()  returns TRUE (0018ms, 2123ms total)
T0468 003:541 JLINK_ReadReg(R15 (PC))  returns 0x10000000 (0000ms, 2105ms total)
T0468 003:541 JLINK_ClrBPEx(BPHandle = 0x00000009)  returns 0x00 (0000ms, 2105ms total)
T0468 003:541 JLINK_ReadReg(R0)  returns 0x00000000 (0000ms, 2105ms total)
T0468 003:542 JLINK_WriteReg(R0, 0x00004000)  returns 0x00 (0000ms, 2106ms total)
T0468 003:542 JLINK_WriteReg(R1, 0x00001000)  returns 0x00 (0000ms, 2106ms total)
T0468 003:542 JLINK_WriteReg(R2, 0x000000FF)  returns 0x00 (0001ms, 2107ms total)
T0468 003:543 JLINK_WriteReg(R3, 0x00000000)  returns 0x00 (0000ms, 2107ms total)
T0468 003:543 JLINK_WriteReg(R4, 0x00000000)  returns 0x00 (0000ms, 2107ms total)
T0468 003:543 JLINK_WriteReg(R5, 0x00000000)  returns 0x00 (0000ms, 2107ms total)
T0468 003:543 JLINK_WriteReg(R6, 0x00000000)  returns 0x00 (0000ms, 2107ms total)
T0468 003:543 JLINK_WriteReg(R7, 0x00000000)  returns 0x00 (0000ms, 2107ms total)
T0468 003:543 JLINK_WriteReg(R8, 0x00000000)  returns 0x00 (0000ms, 2107ms total)
T0468 003:543 JLINK_WriteReg(R9, 0x10000168)  returns 0x00 (0000ms, 2107ms total)
T0468 003:543 JLINK_WriteReg(R10, 0x00000000)  returns 0x00 (0000ms, 2107ms total)
T0468 003:543 JLINK_WriteReg(R11, 0x00000000)  returns 0x00 (0000ms, 2107ms total)
T0468 003:543 JLINK_WriteReg(R12, 0x00000000)  returns 0x00 (0000ms, 2107ms total)
T0468 003:543 JLINK_WriteReg(R13 (SP), 0x10000800)  returns 0x00 (0000ms, 2107ms total)
T0468 003:543 JLINK_WriteReg(R14, 0x10000001)  returns 0x00 (0000ms, 2107ms total)
T0468 003:543 JLINK_WriteReg(R15 (PC), 0x10000020)  returns 0x00 (0000ms, 2107ms total)
T0468 003:543 JLINK_WriteReg(XPSR, 0x01000000)  returns 0x00 (0000ms, 2107ms total)
T0468 003:543 JLINK_WriteReg(MSP, 0x10000800)  returns 0x00 (0000ms, 2107ms total)
T0468 003:543 JLINK_WriteReg(PSP, 0x10000800)  returns 0x00 (0000ms, 2107ms total)
T0468 003:543 JLINK_WriteReg(CFBP, 0x00000000)  returns 0x00 (0000ms, 2107ms total)
T0468 003:543 JLINK_SetBPEx(Addr = 0x10000000, Type = 0xFFFFFFF2)  returns 0x0000000A (0000ms, 2107ms total)
T0468 003:543 JLINK_Go() -- CPU_WriteMem(4 bytes @ 0xE0002000) (0022ms, 2129ms total)
T0468 003:565 JLINK_IsHalted()  returns TRUE (0017ms, 2146ms total)
T0468 003:582 JLINK_ReadReg(R15 (PC))  returns 0x10000000 (0000ms, 2129ms total)
T0468 003:582 JLINK_ClrBPEx(BPHandle = 0x0000000A)  returns 0x00 (0000ms, 2129ms total)
T0468 003:582 JLINK_ReadReg(R0)  returns 0x00000001 (0000ms, 2129ms total)
T0468 003:582 JLINK_WriteReg(R0, 0x00004000)  returns 0x00 (0000ms, 2129ms total)
T0468 003:583 JLINK_WriteReg(R1, 0x00001000)  returns 0x00 (0000ms, 2130ms total)
T0468 003:583 JLINK_WriteReg(R2, 0x000000FF)  returns 0x00 (0000ms, 2130ms total)
T0468 003:583 JLINK_WriteReg(R3, 0x00000000)  returns 0x00 (0000ms, 2130ms total)
T0468 003:583 JLINK_WriteReg(R4, 0x00000000)  returns 0x00 (0000ms, 2130ms total)
T0468 003:583 JLINK_WriteReg(R5, 0x00000000)  returns 0x00 (0000ms, 2130ms total)
T0468 003:583 JLINK_WriteReg(R6, 0x00000000)  returns 0x00 (0000ms, 2130ms total)
T0468 003:583 JLINK_WriteReg(R7, 0x00000000)  returns 0x00 (0000ms, 2130ms total)
T0468 003:583 JLINK_WriteReg(R8, 0x00000000)  returns 0x00 (0000ms, 2130ms total)
T0468 003:583 JLINK_WriteReg(R9, 0x10000168)  returns 0x00 (0000ms, 2130ms total)
T0468 003:583 JLINK_WriteReg(R10, 0x00000000)  returns 0x00 (0000ms, 2130ms total)
T0468 003:583 JLINK_WriteReg(R11, 0x00000000)  returns 0x00 (0000ms, 2130ms total)
T0468 003:583 JLINK_WriteReg(R12, 0x00000000)  returns 0x00 (0000ms, 2130ms total)
T0468 003:583 JLINK_WriteReg(R13 (SP), 0x10000800)  returns 0x00 (0000ms, 2130ms total)
T0468 003:583 JLINK_WriteReg(R14, 0x10000001)  returns 0x00 (0000ms, 2130ms total)
T0468 003:583 JLINK_WriteReg(R15 (PC), 0x100000A4)  returns 0x00 (0000ms, 2130ms total)
T0468 003:583 JLINK_WriteReg(XPSR, 0x01000000)  returns 0x00 (0000ms, 2130ms total)
T0468 003:583 JLINK_WriteReg(MSP, 0x10000800)  returns 0x00 (0000ms, 2130ms total)
T0468 003:583 JLINK_WriteReg(PSP, 0x10000800)  returns 0x00 (0000ms, 2130ms total)
T0468 003:583 JLINK_WriteReg(CFBP, 0x00000000)  returns 0x00 (0000ms, 2130ms total)
T0468 003:583 JLINK_SetBPEx(Addr = 0x10000000, Type = 0xFFFFFFF2)  returns 0x0000000B (0000ms, 2130ms total)
T0468 003:583 JLINK_Go() -- CPU_WriteMem(4 bytes @ 0xE0002000) (0021ms, 2151ms total)
T0468 003:604 JLINK_IsHalted()  returns FALSE (0005ms, 2156ms total)
T0468 003:641 JLINK_IsHalted()  returns FALSE (0006ms, 2157ms total)
T0468 003:649 JLINK_IsHalted()  returns FALSE (0009ms, 2160ms total)
T0468 003:660 JLINK_IsHalted()  returns FALSE (0004ms, 2155ms total)
T0468 003:666 JLINK_IsHalted()  returns FALSE (0006ms, 2157ms total)
T0468 003:673 JLINK_IsHalted()  returns FALSE (0004ms, 2155ms total)
T0468 003:679 JLINK_IsHalted()  returns FALSE (0007ms, 2158ms total)
T0468 003:688 JLINK_IsHalted()  returns FALSE (0010ms, 2161ms total)
T0468 003:701 JLINK_IsHalted()  returns TRUE (0018ms, 2169ms total)
T0468 003:719 JLINK_ReadReg(R15 (PC))  returns 0x10000000 (0000ms, 2151ms total)
T0468 003:719 JLINK_ClrBPEx(BPHandle = 0x0000000B)  returns 0x00 (0000ms, 2151ms total)
T0468 003:719 JLINK_ReadReg(R0)  returns 0x00000000 (0000ms, 2151ms total)
T0468 003:721 JLINK_WriteReg(R0, 0x00005000)  returns 0x00 (0000ms, 2151ms total)
T0468 003:721 JLINK_WriteReg(R1, 0x00001000)  returns 0x00 (0000ms, 2151ms total)
T0468 003:721 JLINK_WriteReg(R2, 0x000000FF)  returns 0x00 (0000ms, 2151ms total)
T0468 003:721 JLINK_WriteReg(R3, 0x00000000)  returns 0x00 (0000ms, 2151ms total)
T0468 003:721 JLINK_WriteReg(R4, 0x00000000)  returns 0x00 (0000ms, 2151ms total)
T0468 003:721 JLINK_WriteReg(R5, 0x00000000)  returns 0x00 (0000ms, 2151ms total)
T0468 003:721 JLINK_WriteReg(R6, 0x00000000)  returns 0x00 (0000ms, 2151ms total)
T0468 003:721 JLINK_WriteReg(R7, 0x00000000)  returns 0x00 (0000ms, 2151ms total)
T0468 003:721 JLINK_WriteReg(R8, 0x00000000)  returns 0x00 (0000ms, 2151ms total)
T0468 003:721 JLINK_WriteReg(R9, 0x10000168)  returns 0x00 (0000ms, 2151ms total)
T0468 003:721 JLINK_WriteReg(R10, 0x00000000)  returns 0x00 (0000ms, 2151ms total)
T0468 003:721 JLINK_WriteReg(R11, 0x00000000)  returns 0x00 (0000ms, 2151ms total)
T0468 003:721 JLINK_WriteReg(R12, 0x00000000)  returns 0x00 (0000ms, 2151ms total)
T0468 003:721 JLINK_WriteReg(R13 (SP), 0x10000800)  returns 0x00 (0000ms, 2151ms total)
T0468 003:721 JLINK_WriteReg(R14, 0x10000001)  returns 0x00 (0000ms, 2151ms total)
T0468 003:721 JLINK_WriteReg(R15 (PC), 0x10000020)  returns 0x00 (0000ms, 2151ms total)
T0468 003:721 JLINK_WriteReg(XPSR, 0x01000000)  returns 0x00 (0000ms, 2151ms total)
T0468 003:721 JLINK_WriteReg(MSP, 0x10000800)  returns 0x00 (0000ms, 2151ms total)
T0468 003:721 JLINK_WriteReg(PSP, 0x10000800)  returns 0x00 (0000ms, 2151ms total)
T0468 003:722 JLINK_WriteReg(CFBP, 0x00000000)  returns 0x00 (0000ms, 2152ms total)
T0468 003:722 JLINK_SetBPEx(Addr = 0x10000000, Type = 0xFFFFFFF2)  returns 0x0000000C (0000ms, 2152ms total)
T0468 003:722 JLINK_Go() -- CPU_WriteMem(4 bytes @ 0xE0002000) (0022ms, 2174ms total)
T0468 003:744 JLINK_IsHalted()  returns TRUE (0016ms, 2190ms total)
T0468 003:760 JLINK_ReadReg(R15 (PC))  returns 0x10000000 (0000ms, 2174ms total)
T0468 003:760 JLINK_ClrBPEx(BPHandle = 0x0000000C)  returns 0x00 (0000ms, 2174ms total)
T0468 003:760 JLINK_ReadReg(R0)  returns 0x00000001 (0000ms, 2174ms total)
T0468 003:760 JLINK_WriteReg(R0, 0x00005000)  returns 0x00 (0000ms, 2174ms total)
T0468 003:760 JLINK_WriteReg(R1, 0x00001000)  returns 0x00 (0000ms, 2174ms total)
T0468 003:760 JLINK_WriteReg(R2, 0x000000FF)  returns 0x00 (0000ms, 2174ms total)
T0468 003:760 JLINK_WriteReg(R3, 0x00000000)  returns 0x00 (0000ms, 2174ms total)
T0468 003:760 JLINK_WriteReg(R4, 0x00000000)  returns 0x00 (0000ms, 2174ms total)
T0468 003:760 JLINK_WriteReg(R5, 0x00000000)  returns 0x00 (0000ms, 2174ms total)
T0468 003:760 JLINK_WriteReg(R6, 0x00000000)  returns 0x00 (0000ms, 2174ms total)
T0468 003:760 JLINK_WriteReg(R7, 0x00000000)  returns 0x00 (0000ms, 2174ms total)
T0468 003:760 JLINK_WriteReg(R8, 0x00000000)  returns 0x00 (0000ms, 2174ms total)
T0468 003:760 JLINK_WriteReg(R9, 0x10000168)  returns 0x00 (0001ms, 2175ms total)
T0468 003:761 JLINK_WriteReg(R10, 0x00000000)  returns 0x00 (0000ms, 2175ms total)
T0468 003:761 JLINK_WriteReg(R11, 0x00000000)  returns 0x00 (0000ms, 2175ms total)
T0468 003:761 JLINK_WriteReg(R12, 0x00000000)  returns 0x00 (0000ms, 2175ms total)
T0468 003:761 JLINK_WriteReg(R13 (SP), 0x10000800)  returns 0x00 (0000ms, 2175ms total)
T0468 003:761 JLINK_WriteReg(R14, 0x10000001)  returns 0x00 (0000ms, 2175ms total)
T0468 003:761 JLINK_WriteReg(R15 (PC), 0x100000A4)  returns 0x00 (0000ms, 2175ms total)
T0468 003:761 JLINK_WriteReg(XPSR, 0x01000000)  returns 0x00 (0000ms, 2175ms total)
T0468 003:761 JLINK_WriteReg(MSP, 0x10000800)  returns 0x00 (0000ms, 2175ms total)
T0468 003:761 JLINK_WriteReg(PSP, 0x10000800)  returns 0x00 (0000ms, 2175ms total)
T0468 003:761 JLINK_WriteReg(CFBP, 0x00000000)  returns 0x00 (0000ms, 2175ms total)
T0468 003:761 JLINK_SetBPEx(Addr = 0x10000000, Type = 0xFFFFFFF2)  returns 0x0000000D (0000ms, 2175ms total)
T0468 003:761 JLINK_Go() -- CPU_WriteMem(4 bytes @ 0xE0002000) (0029ms, 2204ms total)
T0468 003:790 JLINK_IsHalted()  returns FALSE (0008ms, 2212ms total)
T0468 003:820 JLINK_IsHalted()  returns FALSE (0003ms, 2207ms total)
T0468 003:825 JLINK_IsHalted()  returns FALSE (0008ms, 2212ms total)
T0468 003:871 JLINK_IsHalted()  returns FALSE (0005ms, 2209ms total)
T0468 003:886 JLINK_IsHalted()  returns FALSE (0003ms, 2207ms total)
T0468 003:891 JLINK_IsHalted()  returns TRUE (0023ms, 2227ms total)
T0468 003:914 JLINK_ReadReg(R15 (PC))  returns 0x10000000 (0000ms, 2204ms total)
T0468 003:914 JLINK_ClrBPEx(BPHandle = 0x0000000D)  returns 0x00 (0000ms, 2204ms total)
T0468 003:914 JLINK_ReadReg(R0)  returns 0x00000000 (0000ms, 2204ms total)
T0468 003:916 JLINK_WriteReg(R0, 0x00006000)  returns 0x00 (0000ms, 2204ms total)
T0468 003:916 JLINK_WriteReg(R1, 0x00001000)  returns 0x00 (0000ms, 2204ms total)
T0468 003:916 JLINK_WriteReg(R2, 0x000000FF)  returns 0x00 (0000ms, 2204ms total)
T0468 003:916 JLINK_WriteReg(R3, 0x00000000)  returns 0x00 (0000ms, 2204ms total)
T0468 003:916 JLINK_WriteReg(R4, 0x00000000)  returns 0x00 (0000ms, 2204ms total)
T0468 003:916 JLINK_WriteReg(R5, 0x00000000)  returns 0x00 (0000ms, 2204ms total)
T0468 003:916 JLINK_WriteReg(R6, 0x00000000)  returns 0x00 (0000ms, 2204ms total)
T0468 003:916 JLINK_WriteReg(R7, 0x00000000)  returns 0x00 (0000ms, 2204ms total)
T0468 003:916 JLINK_WriteReg(R8, 0x00000000)  returns 0x00 (0000ms, 2204ms total)
T0468 003:916 JLINK_WriteReg(R9, 0x10000168)  returns 0x00 (0000ms, 2204ms total)
T0468 003:916 JLINK_WriteReg(R10, 0x00000000)  returns 0x00 (0000ms, 2204ms total)
T0468 003:916 JLINK_WriteReg(R11, 0x00000000)  returns 0x00 (0000ms, 2204ms total)
T0468 003:916 JLINK_WriteReg(R12, 0x00000000)  returns 0x00 (0000ms, 2204ms total)
T0468 003:916 JLINK_WriteReg(R13 (SP), 0x10000800)  returns 0x00 (0000ms, 2204ms total)
T0468 003:916 JLINK_WriteReg(R14, 0x10000001)  returns 0x00 (0000ms, 2204ms total)
T0468 003:916 JLINK_WriteReg(R15 (PC), 0x10000020)  returns 0x00 (0000ms, 2204ms total)
T0468 003:916 JLINK_WriteReg(XPSR, 0x01000000)  returns 0x00 (0000ms, 2204ms total)
T0468 003:916 JLINK_WriteReg(MSP, 0x10000800)  returns 0x00 (0000ms, 2204ms total)
T0468 003:916 JLINK_WriteReg(PSP, 0x10000800)  returns 0x00 (0000ms, 2204ms total)
T0468 003:916 JLINK_WriteReg(CFBP, 0x00000000)  returns 0x00 (0000ms, 2204ms total)
T0468 003:916 JLINK_SetBPEx(Addr = 0x10000000, Type = 0xFFFFFFF2)  returns 0x0000000E (0000ms, 2204ms total)
T0468 003:916 JLINK_Go() -- CPU_WriteMem(4 bytes @ 0xE0002000) (0028ms, 2232ms total)
T0468 003:944 JLINK_IsHalted()  returns TRUE (0025ms, 2257ms total)
T0468 003:969 JLINK_ReadReg(R15 (PC))  returns 0x10000000 (0000ms, 2232ms total)
T0468 003:969 JLINK_ClrBPEx(BPHandle = 0x0000000E)  returns 0x00 (0000ms, 2232ms total)
T0468 003:969 JLINK_ReadReg(R0)  returns 0x00000001 (0000ms, 2232ms total)
T0468 003:969 JLINK_WriteReg(R0, 0x00006000)  returns 0x00 (0000ms, 2232ms total)
T0468 003:969 JLINK_WriteReg(R1, 0x00001000)  returns 0x00 (0000ms, 2232ms total)
T0468 003:969 JLINK_WriteReg(R2, 0x000000FF)  returns 0x00 (0000ms, 2232ms total)
T0468 003:969 JLINK_WriteReg(R3, 0x00000000)  returns 0x00 (0000ms, 2232ms total)
T0468 003:970 JLINK_WriteReg(R4, 0x00000000)  returns 0x00 (0000ms, 2232ms total)
T0468 003:970 JLINK_WriteReg(R5, 0x00000000)  returns 0x00 (0000ms, 2232ms total)
T0468 003:970 JLINK_WriteReg(R6, 0x00000000)  returns 0x00 (0000ms, 2232ms total)
T0468 003:970 JLINK_WriteReg(R7, 0x00000000)  returns 0x00 (0000ms, 2232ms total)
T0468 003:970 JLINK_WriteReg(R8, 0x00000000)  returns 0x00 (0000ms, 2232ms total)
T0468 003:970 JLINK_WriteReg(R9, 0x10000168)  returns 0x00 (0000ms, 2232ms total)
T0468 003:970 JLINK_WriteReg(R10, 0x00000000)  returns 0x00 (0000ms, 2232ms total)
T0468 003:970 JLINK_WriteReg(R11, 0x00000000)  returns 0x00 (0000ms, 2232ms total)
T0468 003:970 JLINK_WriteReg(R12, 0x00000000)  returns 0x00 (0000ms, 2232ms total)
T0468 003:970 JLINK_WriteReg(R13 (SP), 0x10000800)  returns 0x00 (0000ms, 2232ms total)
T0468 003:970 JLINK_WriteReg(R14, 0x10000001)  returns 0x00 (0000ms, 2232ms total)
T0468 003:970 JLINK_WriteReg(R15 (PC), 0x100000A4)  returns 0x00 (0000ms, 2232ms total)
T0468 003:970 JLINK_WriteReg(XPSR, 0x01000000)  returns 0x00 (0000ms, 2232ms total)
T0468 003:970 JLINK_WriteReg(MSP, 0x10000800)  returns 0x00 (0000ms, 2232ms total)
T0468 003:970 JLINK_WriteReg(PSP, 0x10000800)  returns 0x00 (0000ms, 2232ms total)
T0468 003:970 JLINK_WriteReg(CFBP, 0x00000000)  returns 0x00 (0000ms, 2232ms total)
T0468 003:970 JLINK_SetBPEx(Addr = 0x10000000, Type = 0xFFFFFFF2)  returns 0x0000000F (0000ms, 2232ms total)
T0468 003:970 JLINK_Go() -- CPU_WriteMem(4 bytes @ 0xE0002000) (0019ms, 2251ms total)
T0468 003:989 JLINK_IsHalted()  returns FALSE (0015ms, 2266ms total)
T0468 004:031 JLINK_IsHalted()  returns FALSE (0007ms, 2258ms total)
T0468 004:039 JLINK_IsHalted()  returns FALSE (0010ms, 2261ms total)
T0468 004:073 JLINK_IsHalted()  returns FALSE (0010ms, 2261ms total)
T0468 004:086 JLINK_IsHalted()  returns TRUE (0020ms, 2271ms total)
T0468 004:106 JLINK_ReadReg(R15 (PC))  returns 0x10000000 (0000ms, 2251ms total)
T0468 004:106 JLINK_ClrBPEx(BPHandle = 0x0000000F)  returns 0x00 (0000ms, 2251ms total)
T0468 004:106 JLINK_ReadReg(R0)  returns 0x00000000 (0000ms, 2251ms total)
T0468 004:106 JLINK_WriteReg(R0, 0x00000001)  returns 0x00 (0000ms, 2251ms total)
T0468 004:106 JLINK_WriteReg(R1, 0x00001000)  returns 0x00 (0000ms, 2251ms total)
T0468 004:106 JLINK_WriteReg(R2, 0x000000FF)  returns 0x00 (0000ms, 2251ms total)
T0468 004:106 JLINK_WriteReg(R3, 0x00000000)  returns 0x00 (0000ms, 2251ms total)
T0468 004:106 JLINK_WriteReg(R4, 0x00000000)  returns 0x00 (0000ms, 2251ms total)
T0468 004:106 JLINK_WriteReg(R5, 0x00000000)  returns 0x00 (0000ms, 2251ms total)
T0468 004:106 JLINK_WriteReg(R6, 0x00000000)  returns 0x00 (0000ms, 2251ms total)
T0468 004:106 JLINK_WriteReg(R7, 0x00000000)  returns 0x00 (0000ms, 2251ms total)
T0468 004:106 JLINK_WriteReg(R8, 0x00000000)  returns 0x00 (0000ms, 2251ms total)
T0468 004:106 JLINK_WriteReg(R9, 0x10000168)  returns 0x00 (0000ms, 2251ms total)
T0468 004:106 JLINK_WriteReg(R10, 0x00000000)  returns 0x00 (0000ms, 2251ms total)
T0468 004:106 JLINK_WriteReg(R11, 0x00000000)  returns 0x00 (0000ms, 2251ms total)
T0468 004:106 JLINK_WriteReg(R12, 0x00000000)  returns 0x00 (0000ms, 2251ms total)
T0468 004:106 JLINK_WriteReg(R13 (SP), 0x10000800)  returns 0x00 (0000ms, 2251ms total)
T0468 004:106 JLINK_WriteReg(R14, 0x10000001)  returns 0x00 (0000ms, 2251ms total)
T0468 004:106 JLINK_WriteReg(R15 (PC), 0x10000060)  returns 0x00 (0000ms, 2251ms total)
T0468 004:106 JLINK_WriteReg(XPSR, 0x01000000)  returns 0x00 (0000ms, 2251ms total)
T0468 004:106 JLINK_WriteReg(MSP, 0x10000800)  returns 0x00 (0000ms, 2251ms total)
T0468 004:106 JLINK_WriteReg(PSP, 0x10000800)  returns 0x00 (0000ms, 2251ms total)
T0468 004:106 JLINK_WriteReg(CFBP, 0x00000000)  returns 0x00 (0000ms, 2251ms total)
T0468 004:106 JLINK_SetBPEx(Addr = 0x10000000, Type = 0xFFFFFFF2)  returns 0x00000010 (0000ms, 2251ms total)
T0468 004:106 JLINK_Go() -- CPU_WriteMem(4 bytes @ 0xE0002000) (0024ms, 2275ms total)
T0468 004:130 JLINK_IsHalted()  returns TRUE (0014ms, 2289ms total)
T0468 004:144 JLINK_ReadReg(R15 (PC))  returns 0x10000000 (0000ms, 2275ms total)
T0468 004:144 JLINK_ClrBPEx(BPHandle = 0x00000010)  returns 0x00 (0000ms, 2275ms total)
T0468 004:144 JLINK_ReadReg(R0)  returns 0x00000000 (0000ms, 2275ms total)
T0468 004:218 JLINK_WriteMem(0x10000000, 0x0170 Bytes, ...) -- Data:  00 BE 0A E0 0D 78 2D 06 68 40 08 24 40 00 00 D3 ... -- CPU_WriteMem(368 bytes @ 0x10000000)  returns 0x170 (0009ms, 2284ms total)
T0468 004:227 JLINK_WriteReg(R0, 0x00000000)  returns 0x00 (0000ms, 2284ms total)
T0468 004:227 JLINK_WriteReg(R1, 0x00B71B00)  returns 0x00 (0000ms, 2284ms total)
T0468 004:227 JLINK_WriteReg(R2, 0x00000002)  returns 0x00 (0000ms, 2284ms total)
T0468 004:227 JLINK_WriteReg(R3, 0x00000000)  returns 0x00 (0000ms, 2284ms total)
T0468 004:227 JLINK_WriteReg(R4, 0x00000000)  returns 0x00 (0000ms, 2284ms total)
T0468 004:227 JLINK_WriteReg(R5, 0x00000000)  returns 0x00 (0000ms, 2284ms total)
T0468 004:227 JLINK_WriteReg(R6, 0x00000000)  returns 0x00 (0000ms, 2284ms total)
T0468 004:227 JLINK_WriteReg(R7, 0x00000000)  returns 0x00 (0000ms, 2284ms total)
T0468 004:227 JLINK_WriteReg(R8, 0x00000000)  returns 0x00 (0000ms, 2284ms total)
T0468 004:227 JLINK_WriteReg(R9, 0x10000168)  returns 0x00 (0000ms, 2284ms total)
T0468 004:227 JLINK_WriteReg(R10, 0x00000000)  returns 0x00 (0000ms, 2284ms total)
T0468 004:227 JLINK_WriteReg(R11, 0x00000000)  returns 0x00 (0000ms, 2284ms total)
T0468 004:227 JLINK_WriteReg(R12, 0x00000000)  returns 0x00 (0000ms, 2284ms total)
T0468 004:227 JLINK_WriteReg(R13 (SP), 0x10000800)  returns 0x00 (0000ms, 2284ms total)
T0468 004:227 JLINK_WriteReg(R14, 0x10000001)  returns 0x00 (0000ms, 2284ms total)
T0468 004:227 JLINK_WriteReg(R15 (PC), 0x1000003C)  returns 0x00 (0000ms, 2284ms total)
T0468 004:227 JLINK_WriteReg(XPSR, 0x01000000)  returns 0x00 (0000ms, 2284ms total)
T0468 004:227 JLINK_WriteReg(MSP, 0x10000800)  returns 0x00 (0000ms, 2284ms total)
T0468 004:227 JLINK_WriteReg(PSP, 0x10000800)  returns 0x00 (0001ms, 2285ms total)
T0468 004:228 JLINK_WriteReg(CFBP, 0x00000000)  returns 0x00 (0000ms, 2285ms total)
T0468 004:228 JLINK_SetBPEx(Addr = 0x10000000, Type = 0xFFFFFFF2)  returns 0x00000011 (0000ms, 2285ms total)
T0468 004:228 JLINK_Go() -- CPU_WriteMem(4 bytes @ 0xE0002000) (0029ms, 2314ms total)
T0468 004:257 JLINK_IsHalted()  returns TRUE (0015ms, 2329ms total)
T0468 004:272 JLINK_ReadReg(R15 (PC))  returns 0x10000000 (0000ms, 2314ms total)
T0468 004:272 JLINK_ClrBPEx(BPHandle = 0x00000011)  returns 0x00 (0000ms, 2314ms total)
T0468 004:272 JLINK_ReadReg(R0)  returns 0x00000000 (0000ms, 2314ms total)
T0468 004:272 JLINK_WriteMem(0x10000190, 0x0270 Bytes, ...) -- Data:  00 20 00 10 A1 02 00 00 BB 02 00 00 A9 02 00 00 ... -- CPU_WriteMem(624 bytes @ 0x10000190)  returns 0x270 (0010ms, 2324ms total)
T0468 004:282 JLINK_WriteMem(0x10000400, 0x0190 Bytes, ...) -- Data:  00 28 04 D0 08 78 00 28 01 D1 01 20 70 47 00 20 ... -- CPU_WriteMem(400 bytes @ 0x10000400)  returns 0x190 (0011ms, 2335ms total)
T0468 004:293 JLINK_WriteReg(R0, 0x00000000)  returns 0x00 (0000ms, 2335ms total)
T0468 004:293 JLINK_WriteReg(R1, 0x00000400)  returns 0x00 (0000ms, 2335ms total)
T0468 004:293 JLINK_WriteReg(R2, 0x10000190)  returns 0x00 (0000ms, 2335ms total)
T0468 004:293 JLINK_WriteReg(R3, 0x00000000)  returns 0x00 (0000ms, 2335ms total)
T0468 004:293 JLINK_WriteReg(R4, 0x00000000)  returns 0x00 (0000ms, 2335ms total)
T0468 004:293 JLINK_WriteReg(R5, 0x00000000)  returns 0x00 (0000ms, 2335ms total)
T0468 004:293 JLINK_WriteReg(R6, 0x00000000)  returns 0x00 (0000ms, 2335ms total)
T0468 004:293 JLINK_WriteReg(R7, 0x00000000)  returns 0x00 (0000ms, 2335ms total)
T0468 004:293 JLINK_WriteReg(R8, 0x00000000)  returns 0x00 (0000ms, 2335ms total)
T0468 004:293 JLINK_WriteReg(R9, 0x10000168)  returns 0x00 (0000ms, 2335ms total)
T0468 004:293 JLINK_WriteReg(R10, 0x00000000)  returns 0x00 (0000ms, 2335ms total)
T0468 004:293 JLINK_WriteReg(R11, 0x00000000)  returns 0x00 (0000ms, 2335ms total)
T0468 004:293 JLINK_WriteReg(R12, 0x00000000)  returns 0x00 (0000ms, 2335ms total)
T0468 004:293 JLINK_WriteReg(R13 (SP), 0x10000800)  returns 0x00 (0000ms, 2335ms total)
T0468 004:293 JLINK_WriteReg(R14, 0x10000001)  returns 0x00 (0000ms, 2335ms total)
T0468 004:293 JLINK_WriteReg(R15 (PC), 0x100000E6)  returns 0x00 (0000ms, 2335ms total)
T0468 004:293 JLINK_WriteReg(XPSR, 0x01000000)  returns 0x00 (0000ms, 2335ms total)
T0468 004:293 JLINK_WriteReg(MSP, 0x10000800)  returns 0x00 (0000ms, 2335ms total)
T0468 004:293 JLINK_WriteReg(PSP, 0x10000800)  returns 0x00 (0000ms, 2335ms total)
T0468 004:293 JLINK_WriteReg(CFBP, 0x00000000)  returns 0x00 (0000ms, 2335ms total)
T0468 004:293 JLINK_SetBPEx(Addr = 0x10000000, Type = 0xFFFFFFF2)  returns 0x00000012 (0000ms, 2335ms total)
T0468 004:293 JLINK_Go() -- CPU_WriteMem(4 bytes @ 0xE0002000) (0017ms, 2352ms total)
T0468 004:310 JLINK_IsHalted()  returns TRUE (0022ms, 2374ms total)
T0468 004:332 JLINK_ReadReg(R15 (PC))  returns 0x10000000 (0000ms, 2352ms total)
T0468 004:332 JLINK_ClrBPEx(BPHandle = 0x00000012)  returns 0x00 (0001ms, 2353ms total)
T0468 004:333 JLINK_ReadReg(R0)  returns 0x00000000 (0000ms, 2353ms total)
T0468 004:334 JLINK_WriteMem(0x10000190, 0x0270 Bytes, ...) -- Data:  40 7A 00 28 01 D0 01 20 00 E0 00 20 00 28 79 D1 ... -- CPU_WriteMem(624 bytes @ 0x10000190)  returns 0x270 (0016ms, 2369ms total)
T0468 004:350 JLINK_WriteMem(0x10000400, 0x0190 Bytes, ...) -- Data:  E2 48 58 38 02 F0 38 F8 10 BD F0 B5 85 B0 E0 4C ... -- CPU_WriteMem(400 bytes @ 0x10000400)  returns 0x190 (0012ms, 2381ms total)
T0468 004:362 JLINK_WriteReg(R0, 0x00000400)  returns 0x00 (0000ms, 2381ms total)
T0468 004:362 JLINK_WriteReg(R1, 0x00000400)  returns 0x00 (0000ms, 2381ms total)
T0468 004:362 JLINK_WriteReg(R2, 0x10000190)  returns 0x00 (0000ms, 2381ms total)
T0468 004:362 JLINK_WriteReg(R3, 0x00000000)  returns 0x00 (0000ms, 2381ms total)
T0468 004:362 JLINK_WriteReg(R4, 0x00000000)  returns 0x00 (0000ms, 2381ms total)
T0468 004:362 JLINK_WriteReg(R5, 0x00000000)  returns 0x00 (0000ms, 2381ms total)
T0468 004:362 JLINK_WriteReg(R6, 0x00000000)  returns 0x00 (0000ms, 2381ms total)
T0468 004:362 JLINK_WriteReg(R7, 0x00000000)  returns 0x00 (0000ms, 2381ms total)
T0468 004:362 JLINK_WriteReg(R8, 0x00000000)  returns 0x00 (0000ms, 2381ms total)
T0468 004:362 JLINK_WriteReg(R9, 0x10000168)  returns 0x00 (0000ms, 2381ms total)
